Frequency[Hz],S11/dB,S11/phase[deg],S11/unwrapped_phase[deg],,,,,,,,
1000000,0.207454291,0.386320262,0.386320262,,,,,,,,
15995000,-0.064219646,-9.942292357,-9.942292357,,,,,,,,
30990000,0.164623032,-20.84031379,-20.84031379,,,,,,,,
45985000,0.230838798,-30.3455705,-30.3455705,,,,,,,,
60980000,-0.165268224,-38.30346126,-38.30346126,,MIN,-36.92887194,,MIN2,-36.92887194,85.32905143,1.489272893
75975000,-0.367319045,-47.53569901,-47.53569901,,FREQ,1755415000,,FREQ2,1755415000,,
90970000,-0.461091911,-59.28475477,-59.28475477,,,,,,,,
105965000,-0.154620838,-71.65980027,-71.65980027,,,,,,,,
120960000,-0.277899957,-80.73879404,-80.73879404,,,,,,,,
135955000,-0.219275288,-86.00057667,-86.00057667,,,,,,,,
150950000,-0.284171643,-94.35838058,-94.35838058,,,,,,,,
165945000,-0.936121569,-106.2987614,-106.2987614,,,,,,,,
180940000,-0.95844014,-116.1516778,-116.1516778,,,,,,,,
195935000,-0.588260047,-127.6693706,-127.6693706,,,,,,,,
210930000,-0.534847365,-135.6986611,-135.6986611,,,,,,,,
225925000,-0.537572214,-142.8800181,-142.8800181,,,,,,,,
240920000,-0.727642,-152.9770012,-152.9770012,,,,,,,,
255915000,-0.908812628,-160.620298,-160.620298,,,,,,,,
270910000,-1.163511719,-172.0214458,-172.0214458,,,,,,,,
285905000,-1.044356012,178.4378643,-181.5621357,,,,,,,,
300900000,-0.757703593,170.8030089,-189.1969911,,,,,,,,
315895000,-1.083306195,161.5952676,-198.4047324,,,,,,,,
330890000,-1.415534387,155.6097986,-204.3902014,,,,,,,,
345885000,-1.251761697,144.3615694,-215.6384306,,,,,,,,
360880000,-1.561388902,133.6061157,-226.3938843,,,,,,,,
375875000,-2.00239333,125.8933392,-234.1066608,,,,,,,,
390870000,-2.297176038,114.7902868,-245.2097132,,,,,,,,
405865000,-2.013966163,100.7995352,-259.2004648,,,,,,,,
420860000,-1.717081776,91.18943612,-268.8105639,,,,,,,,
435855000,-1.43488046,82.5900716,-277.4099284,,,,,,,,
450850000,-1.128539426,76.22890488,-283.7710951,,,,,,,,
465845000,-1.477732094,70.41795831,-289.5820417,,,,,,,,
480840000,-2.092997015,60.73642343,-299.2635766,,,,,,,,
495835000,-2.398276995,51.35241316,-308.6475868,,,,,,,,
510830000,-2.589544856,39.44272279,-320.5572772,,,,,,,,
525825000,-2.531002701,32.63585878,-327.3641412,,,,,,,,
540820000,-2.656649203,23.37100107,-336.6289989,,,,,,,,
555815000,-2.946293757,14.91015027,-345.0898497,,,,,,,,
570810000,-3.206708495,5.181786038,-354.818214,,,,,,,,
585805000,-3.216397658,-3.280444223,-363.2804442,,,,,,,,
600800000,-3.38939883,-12.55308958,-372.5530896,,,,,,,,
615795000,-3.851254562,-20.38894851,-380.3889485,,,,,,,,
630790000,-4.188414424,-28.83994669,-388.8399467,,,,,,,,
645785000,-4.542177572,-37.98425448,-397.9842545,,,,,,,,
660780000,-5.073571106,-47.03596808,-407.0359681,,,,,,,,
675775000,-4.800494132,-57.58331519,-417.5833152,,,,,,,,
690770000,-5.097107349,-69.14009858,-429.1400986,,,,,,,,
705765000,-5.136420171,-77.83096733,-437.8309673,,,,,,,,
720760000,-5.065769047,-83.90450218,-443.9045022,,,,,,,,
735755000,-4.891054327,-92.45852282,-452.4585228,,,,,,,,
750750000,-5.806496005,-97.12911988,-457.1291199,,,,,,,,
765745000,-6.451631531,-106.4441405,-466.4441405,,,,,,,,
780740000,-6.738330241,-118.2921699,-478.2921699,,,,,,,,
795735000,-6.775730578,-131.8799897,-491.8799897,,,,,,,,
810730000,-6.806758988,-140.4603985,-500.4603985,,,,,,,,
825725000,-6.329221497,-147.218079,-507.218079,,,,,,,,
840720000,-6.53928232,-157.4930378,-517.4930378,,,,,,,,
855715000,-7.662386101,-164.964567,-524.964567,,,,,,,,
870710000,-7.553331896,-174.9708562,-534.9708562,,,,,,,,
885705000,-7.453701634,175.1561395,-544.8438605,,,,,,,,
900700000,-7.813857159,165.8044096,-554.1955904,,,,,,,,
915695000,-8.293687954,157.4322727,-562.5677273,,,,,,,,
930690000,-7.666259172,147.4805402,-572.5194598,,,,,,,,
945685000,-8.281791422,133.0318094,-586.9681906,,,,,,,,
960680000,-9.723272097,123.4635639,-596.5364361,,,,,,,,
975675000,-8.683568863,115.4827789,-604.5172211,,,,,,,,
990670000,-7.632094635,104.853402,-615.146598,,,,,,,,
1005665000,-8.368592611,96.97192171,-623.0280783,,,,,,,,
1020660000,-8.248325361,94.5374202,-625.4625798,,,,,,,,
1035655000,-8.46568555,87.13764771,-632.8623523,,,,,,,,
1050650000,-9.204325966,73.22159979,-646.7784002,,,,,,,,
1065645000,-10.14363281,65.33577632,-654.6642237,,,,,,,,
1080640000,-9.018102442,59.24893924,-660.7510608,,,,,,,,
1095635000,-9.837310292,43.84360169,-676.1563983,,,,,,,,
1110630000,-9.846384382,46.41080826,-673.5891917,,,,,,,,
1125625000,-10.38261101,29.41662842,-690.5833716,,,,,,,,
1140620000,-10.94161539,22.64683685,-697.3531631,,,,,,,,
1155615000,-10.10543147,13.51233535,-706.4876647,,,,,,,,
1170610000,-10.45498177,10.36326567,-709.6367343,,,,,,,,
1185605000,-11.38227849,4.644354756,-715.3556452,,,,,,,,
1200600000,-11.54503154,-4.004126057,-724.0041261,,,,,,,,
1215595000,-11.587453,-7.193713003,-727.193713,,,,,,,,
1230590000,-11.70017617,-14.649716,-734.649716,,,,,,,,
1245585000,-12.28962409,-22.89930194,-742.8993019,,,,,,,,
1260580000,-13.64780999,-33.88788208,-753.8878821,,,,,,,,
1275575000,-13.52773156,-37.52427017,-757.5242702,,,,,,,,
1290570000,-13.74371402,-48.88201464,-768.8820146,,,,,,,,
1305565000,-14.46282334,-49.12527487,-769.1252749,,,,,,,,
1320560000,-15.38537558,-50.74118478,-770.7411848,,,,,,,,
1335555000,-16.51420854,-52.80158639,-772.8015864,,,,,,,,
1350550000,-16.57774643,-63.93189475,-783.9318948,,,,,,,,
1365545000,-16.96348648,-78.37407403,-798.374074,,,,,,,,
1380540000,-16.87775548,-68.12907656,-788.1290766,,,,,,,,
1395535000,-18.19662022,-69.86781062,-789.8678106,,,,,,,,
1410530000,-20.8890416,-80.86314841,-800.8631484,,,,,,,,
1425525000,-20.81382275,-80.1125226,-800.1125226,,,,,,,,
1440520000,-19.12575082,-87.09932007,-807.0993201,,,,,,,,
1455515000,-21.55506742,-121.9083817,-841.9083817,,,,,,,,
1470510000,-21.07969288,-60.83915944,-780.8391594,,,,,,,,
1485505000,-26.12581079,-75.26910175,-795.2691018,,,,,,,,
1500500000,-24.80119478,-94.60914714,-814.6091471,,,,,,,,
1515495000,-29.55387525,-100.76308,-820.76308,,,,,,,,
1530490000,-27.32137121,-85.95134674,-805.9513467,,,,,,,,
1545485000,-25.83896273,-104.5668613,-824.5668613,,,,,,,,
1560480000,-29.57426985,178.1782957,-901.8217043,,,,,,,,
1575475000,-28.69128042,-75.53354811,-795.5335481,,,,,,,,
1590470000,-27.77518543,-73.65582131,-793.6558213,,,,,,,,
1605465000,-34.94608022,-9.45264429,-729.4526443,,,,,,,,
1620460000,-27.21511667,-6.906524514,-726.9065245,,,,,,,,
1635455000,-28.99170172,-126.8423341,-846.8423341,,,,,,,,
1650450000,-35.31690139,-169.7542089,-889.7542089,,,,,,,,
1665445000,-24.18839542,-91.86079278,-811.8607928,,,,,,,,
1680440000,-30.45359417,-114.9140875,-834.9140875,,,,,,,,
1695435000,-34.45083164,95.46685462,-984.5331454,,,,,,,,
1710430000,-33.17533858,-76.24015572,-1156.240156,,,,,,,,
1725425000,-29.21441526,177.2518033,-1262.748197,,,,,,,,
1740420000,-24.44719824,105.6786055,-1334.321395,,,,,,,,
1755415000,-36.92887194,85.32905143,-1354.670949,,,,,,,,
1770410000,-29.65357636,143.55707,-1296.44293,,,,,,,,
1785405000,-24.71801698,110.1985707,-1329.801429,,,,,,,,
1800400000,-22.99250138,88.29271102,-1351.707289,,,,,,,,
1815395000,-25.60482104,71.34985804,-1368.650142,,,,,,,,
1830390000,-18.96609658,89.31384351,-1350.686156,,,,,,,,
1845385000,-18.10509952,73.95829042,-1366.04171,,,,,,,,
1860380000,-19.75644051,77.24436584,-1362.755634,,,,,,,,
1875375000,-18.02746574,67.03131097,-1372.968689,,,,,,,,
1890370000,-16.29734581,59.4088801,-1380.59112,,,,,,,,
1905365000,-17.88379984,53.41178567,-1386.588214,,,,,,,,
1920360000,-16.73135584,55.93361304,-1384.066387,,,,,,,,
1935355000,-17.98238914,37.49487145,-1402.505129,,,,,,,,
1950350000,-15.88882453,47.19683838,-1392.803162,,,,,,,,
1965345000,-13.91248032,21.10716844,-1418.892832,,,,,,,,
1980340000,-15.63391947,16.55183747,-1423.448163,,,,,,,,
1995335000,-13.45882155,7.129802058,-1432.870198,,,,,,,,
2010330000,-12.92175501,-2.561535617,-1442.561536,,,,,,,,
2025325000,-13.41509668,-0.973232772,-1440.973233,,,,,,,,
2040320000,-13.06188692,-12.17667465,-1452.176675,,,,,,,,
2055315000,-11.53109577,-10.67139753,-1450.671398,,,,,,,,
2070310000,-13.75876926,-22.10082701,-1462.100827,,,,,,,,
2085305000,-11.432671,-29.05017093,-1469.050171,,,,,,,,
2100300000,-11.68176757,-36.63608149,-1476.636081,,,,,,,,
2115295000,-11.55859449,-47.95097519,-1487.950975,,,,,,,,
2130290000,-13.82214688,-46.6259708,-1486.625971,,,,,,,,
2145285000,-11.59932182,-50.38969436,-1490.389694,,,,,,,,
2160280000,-11.46307268,-70.48927803,-1510.489278,,,,,,,,
2175275000,-10.85903247,-85.60207156,-1525.602072,,,,,,,,
2190270000,-11.82743381,-73.00574416,-1513.005744,,,,,,,,
2205265000,-9.554282115,-92.24882364,-1532.248824,,,,,,,,
2220260000,-10.8551721,-93.97726702,-1533.977267,,,,,,,,
2235255000,-11.03072525,-101.4224067,-1541.422407,,,,,,,,
2250250000,-8.379216017,-104.256188,-1544.256188,,,,,,,,
2265245000,-9.730759304,-121.063737,-1561.063737,,,,,,,,
2280240000,-11.56705398,-128.9884397,-1568.98844,,,,,,,,
2295235000,-10.16213793,-126.5824152,-1566.582415,,,,,,,,
2310230000,-9.651273089,-145.4977719,-1585.497772,,,,,,,,
2325225000,-10.05115042,-148.4816004,-1588.4816,,,,,,,,
2340220000,-10.36325234,-147.6628253,-1587.662825,,,,,,,,
2355215000,-11.25200214,-146.1538647,-1586.153865,,,,,,,,
2370210000,-11.1740541,-174.3029542,-1614.302954,,,,,,,,
2385205000,-11.06099882,176.613067,-1623.386933,,,,,,,,
2400200000,-9.547922881,169.8679178,-1630.132082,,,,,,,,
2415195000,-9.292547501,142.8799118,-1657.120088,,,,,,,,
2430190000,-8.518787355,148.2928378,-1651.707162,,,,,,,,
2445185000,-9.362741421,147.3284702,-1652.67153,,,,,,,,
2460180000,-10.27890087,126.7393566,-1673.260643,,,,,,,,
2475175000,-10.50076677,105.4803147,-1694.519685,,,,,,,,
2490170000,-9.949219574,106.3004205,-1693.69958,,,,,,,,
2505165000,-9.103812267,94.39547898,-1705.604521,,,,,,,,
2520160000,-9.014938537,88.47420133,-1711.525799,,,,,,,,
2535155000,-7.420071157,79.14756323,-1720.852437,,,,,,,,
2550150000,-9.364902857,70.77475082,-1729.225249,,,,,,,,
2565145000,-10.63245208,41.02033519,-1758.979665,,,,,,,,
2580140000,-8.939460149,34.28247091,-1765.717529,,,,,,,,
2595135000,-7.715025263,29.85778978,-1770.14221,,,,,,,,
2610130000,-8.496064561,14.5117406,-1785.488259,,,,,,,,
2625125000,-8.66604541,14.59760764,-1785.402392,,,,,,,,
2640120000,-6.282937776,-1.392680291,-1801.39268,,,,,,,,
2655115000,-8.808768698,-0.833650219,-1800.83365,,,,,,,,
2670110000,-9.453259132,-8.7546842,-1808.754684,,,,,,,,
2685105000,-8.599868912,-11.56972453,-1811.569725,,,,,,,,
2700100000,-6.995611346,-56.42205906,-1856.422059,,,,,,,,
2715095000,-6.390924795,-61.70721195,-1861.707212,,,,,,,,
2730090000,-6.454404964,-40.72780418,-1840.727804,,,,,,,,
2745085000,-7.066245059,-51.61393468,-1851.613935,,,,,,,,
2760080000,-6.739033137,-65.54744301,-1865.547443,,,,,,,,
2775075000,-9.003081257,-84.06922086,-1884.069221,,,,,,,,
2790070000,-6.929882512,-81.44871569,-1881.448716,,,,,,,,
2805065000,-7.469375535,-96.32559578,-1896.325596,,,,,,,,
2820060000,-5.288081149,-105.6147041,-1905.614704,,,,,,,,
2835055000,-6.460897796,-110.2335295,-1910.233529,,,,,,,,
2850050000,-5.429700048,-114.0778554,-1914.077855,,,,,,,,
2865045000,-6.009101201,-118.4747263,-1918.474726,,,,,,,,
2880040000,-5.751622278,-131.4070901,-1931.40709,,,,,,,,
2895035000,-5.727013889,-139.3758213,-1939.375821,,,,,,,,
2910030000,-5.132937032,-146.2072146,-1946.207215,,,,,,,,
2925025000,-4.989864596,-158.8446754,-1958.844675,,,,,,,,
2940020000,-5.278367897,-161.8391161,-1961.839116,,,,,,,,
2955015000,-4.591790755,-174.2495629,-1974.249563,,,,,,,,
2970010000,-4.053125984,-177.1166048,-1977.116605,,,,,,,,
2985005000,-4.041263224,175.015282,-1984.984718,,,,,,,,
3000000000,-4.279446245,167.263286,-1992.736714,,,,,,,,