Frequency[Hz],S11/dB,S11/phase[deg],S11/unwrapped_phase[deg],,,,,
1000000,-63.5196248,-171.6064443,-171.6064443,,,,,
15920398,-59.83550029,36.77417916,-323.2258208,,,,,
30840796,-57.64927512,157.6453004,-202.3546996,,,,,
45761194,-54.46739394,73.59639202,-286.403608,,,,,
60681592,-49.08139147,72.185007,-287.814993,,,-54.6573343,23.7892595,0.415200904
75601990,-54.22110517,74.5658778,-285.4341222,,,,,
90522388,-45.80167517,63.11452391,-296.8854761,,,,,
105442786,-44.57713097,81.90708591,-278.0929141,,,,,
120363184,-45.23675375,93.75365973,-266.2463403,,,,,
135283582,-41.59251429,69.36166095,-290.638339,,,,,
150203980,-44.49962975,64.86663609,-295.1333639,,,,,
165124378,-49.65262142,78.13390885,-281.8660912,,,,,
180044776,-41.35475358,53.74578481,-306.2542152,,,,,
194965174,-39.04465308,28.15416986,-331.8458301,,,,,
209885572,-41.61461619,38.9348414,-321.0651586,,,,,
224805970,-35.91041851,14.2315299,-345.7684701,,,,,
239726368,-36.01767052,61.82257714,-298.1774229,,,,,
254646766,-39.22652433,25.53397614,-334.4660239,,,,,
269567164,-32.78341175,40.86829507,-319.1317049,,,,,
284487562,-34.90177622,47.42500778,-312.5749922,,,,,
299407960,-32.52944885,7.779705978,-352.220294,,,,,
314328358,-34.03175657,18.50195011,-341.4980499,,,,,
329248756,-35.12114144,35.6498878,-324.3501122,,,,,
344169154,-26.6020201,2.686158347,-357.3138417,,,,,
359089552,-30.84907916,35.3358074,-324.6641926,,,,,
374009950,-25.0209256,6.377873945,-353.6221261,,,,,
388930348,-24.78555663,1.407978427,-358.5920216,,,,,
403850746,-22.6532609,-1.362766272,-361.3627663,,,,,
418771144,-20.58638523,-6.558033074,-366.5580331,,,,,
433691542,-25.56394836,-41.72247185,-401.7224718,,,,,
448611940,-17.83256623,-29.40536116,-389.4053612,,,,,
463532338,-19.85866998,-40.05702669,-400.0570267,,,,,
478452736,-14.58711548,-88.99379095,-448.993791,,,,,
493373134,-15.68019898,-74.16351081,-434.1635108,,,,,
508293532,-17.19240102,-93.00325802,-453.003258,,,,,
523213930,-21.54720797,-119.559242,-479.559242,,,,,
538134328,-20.91681747,-125.7150141,-485.7150141,,,,,
553054726,-23.88457312,-153.4828451,-513.4828451,,,,,
567975124,-21.28807708,-152.4049284,-512.4049284,,,,,
582895522,-22.4201407,177.070777,-542.929223,,,,,
597815920,-21.52936847,-172.6108719,-532.6108719,,,,,
612736318,-22.87536746,-171.8418574,-531.8418574,,,,,
627656716,-24.86438484,173.2610534,-546.7389466,,,,,
642577114,-23.85237675,-158.3420328,-518.3420328,,,,,
657497512,-26.3816199,-168.7329249,-528.7329249,,,,,
672417910,-29.32754621,-177.90219,-537.90219,,,,,
687338308,-28.33779803,169.2055437,-550.7944563,,,,,
702258706,-27.69669985,157.0456941,-562.9543059,,,,,
717179104,-26.96154177,156.2511617,-563.7488383,,,,,
732099502,-25.82815626,153.1850581,-566.8149419,,,,,
747019900,-26.60889059,159.3378487,-560.6621513,,,,,
761940298,-27.70293857,159.8660091,-560.1339909,,,,,
776860696,-29.50886947,159.7090138,-560.2909862,,,,,
791781094,-29.87264927,150.1933352,-569.8066648,,,,,
806701492,-29.98567127,143.6721933,-576.3278067,,,,,
821621890,-29.01457371,134.4293072,-585.5706928,,,,,
836542288,-28.51447997,136.0495358,-583.9504642,,,,,
851462686,-28.23016305,139.4697843,-580.5302157,,,,,
866383084,-29.14159726,143.3067422,-576.6932578,,,,,
881303482,-29.10168148,142.4390382,-577.5609618,,,,,
896223880,-30.88006771,138.8178148,-581.1821852,,,,,
911144278,-30.43598667,133.8306461,-586.1693539,,,,,
926064676,-31.84534641,124.4646566,-595.5353434,,,,,
940985074,-30.24212621,119.470227,-600.529773,,,,,
955905472,-29.91190365,105.6272676,-614.3727324,,,,,
970825870,-29.40593437,111.8652145,-608.1347855,,,,,
985746268,-29.37527288,112.4012396,-607.5987604,,,,,
1000666666,-29.4968639,113.1953947,-606.8046053,,,,,
1015587064,-30.49513421,115.3487806,-604.6512194,,,,,
1030507462,-31.51042824,115.1149071,-604.8850929,,,,,
1045427860,-32.22272351,113.5985757,-606.4014243,,,,,
1060348258,-32.19309553,99.73932471,-620.2606753,,,,,
1075268656,-32.4815864,95.88088146,-624.1191185,,,,,
1090189054,-32.77120772,94.42210137,-625.5778986,,,,,
1105109452,-31.34175615,84.73356611,-635.2664339,,,,,
1120029850,-31.51491197,82.41442054,-637.5855795,,,,,
1134950248,-32.93324483,89.24055555,-630.7594445,,,,,
1149870646,-32.82285134,82.26905466,-637.7309453,,,,,
1164791044,-32.21576423,76.83056728,-643.1694327,,,,,
1179711442,-33.39967439,68.64627291,-651.3537271,,,,,
1194631840,-32.35264765,57.41865678,-662.5813432,,,,,
1209552238,-32.21342596,63.38106701,-656.618933,,,,,
1224472636,-31.10145306,43.77548846,-676.2245115,,,,,
1239393034,-34.2144038,53.76281262,-666.2371874,,,,,
1254313432,-31.46596946,53.98459386,-666.0154061,,,,,
1269233830,-33.15609941,54.11944695,-665.8805531,,,,,
1284154228,-32.92430064,62.64206706,-657.3579329,,,,,
1299074626,-31.56514777,41.87256184,-678.1274382,,,,,
1313995024,-35.65161781,49.60710333,-670.3928967,,,,,
1328915422,-35.20828147,35.59919502,-684.400805,,,,,
1343835820,-38.60302633,33.35152499,-686.648475,,,,,
1358756218,-37.03672717,14.61867148,-705.3813285,,,,,
1373676616,-36.25448507,5.053613683,-714.9463863,,,,,
1388597014,-32.01580672,11.12838342,-708.8716166,,,,,
1403517412,-33.18835008,9.621024749,-710.3789753,,,,,
1418437810,-35.79365293,23.34241624,-696.6575838,,,,,
1433358208,-38.37175854,23.52370935,-696.4762906,,,,,
1448278606,-37.93945594,19.0952485,-700.9047515,,,,,
1463199004,-42.098984,-11.75424485,-731.7542448,,,,,
1478119402,-37.79881354,-6.937447109,-726.9374471,,,,,
1493039800,-36.52821592,-31.9533301,-751.9533301,,,,,
1507960199,-35.65990386,-7.305265426,-727.3052654,,,,,
1522880597,-35.64458446,-17.57890671,-737.5789067,,,,,
1537800995,-39.84189474,5.390950362,-714.6090496,,,,,
1552721393,-38.96957574,10.49286877,-709.5071312,,,,,
1567641791,-39.48657486,7.3099946,-712.6900054,,,,,
1582562189,-38.80842065,-3.618640991,-723.618641,,,,,
1597482587,-54.6573343,23.7892595,-696.2107405,,,,,
1612402985,-39.36782107,-7.769601916,-727.7696019,,,,,
1627323383,-45.41800132,4.541943249,-715.4580568,,,,,
1642243781,-39.09114344,10.89945378,-709.1005462,,,,,
1657164179,-41.36586332,-9.435505806,-729.4355058,,,,,
1672084577,-36.26523474,1.458534556,-718.5414654,,,,,
1687004975,-37.17433432,-11.50835157,-731.5083516,,,,,
1701925373,-36.35059381,-4.364221269,-724.3642213,,,,,
1716845771,-35.41199807,-28.81911455,-748.8191146,,,,,
1731766169,-34.49612411,18.95603872,-701.0439613,,,,,
1746686567,-31.9600114,-15.66534987,-735.6653499,,,,,
1761606965,-36.01981979,12.22144444,-707.7785556,,,,,
1776527363,-35.7864514,-17.05172566,-737.0517257,,,,,
1791447761,-35.17837373,-37.7742469,-757.7742469,,,,,
1806368159,-33.71906521,-29.83865789,-749.8386579,,,,,
1821288557,-34.34505634,-46.27973459,-766.2797346,,,,,
1836208955,-32.34528678,-41.64078034,-761.6407803,,,,,
1851129353,-29.66783921,-58.01357967,-778.0135797,,,,,
1866049751,-29.3283648,-36.65331963,-756.6533196,,,,,
1880970149,-28.76530142,-44.75269542,-764.7526954,,,,,
1895890547,-29.16466301,-52.57512339,-772.5751234,,,,,
1910810945,-28.30307106,-38.04335734,-758.0433573,,,,,
1925731343,-28.53516745,-47.20111044,-767.2011104,,,,,
1940651741,-29.7078829,-63.18446919,-783.1844692,,,,,
1955572139,-28.55256024,-64.56483162,-784.5648316,,,,,
1970492537,-28.10827227,-62.44045852,-782.4404585,,,,,
1985412935,-26.7451953,-68.39899227,-788.3989923,,,,,
2000333333,-29.39583734,-85.42779381,-805.4277938,,,,,
2015253731,-26.25079763,-77.00478783,-797.0047878,,,,,
2030174129,-25.90374532,-105.3388938,-825.3388938,,,,,
2045094527,-25.96707083,-77.46082675,-797.4608267,,,,,
2060014925,-23.11649013,-95.47281072,-815.4728107,,,,,
2074935323,-26.77202381,-108.8439467,-828.8439467,,,,,
2089855721,-23.1973079,-110.0004931,-830.0004931,,,,,
2104776119,-24.09388943,-133.5462343,-853.5462343,,,,,
2119696517,-23.13998106,-109.5236434,-829.5236434,,,,,
2134616915,-25.03365864,-135.4041794,-855.4041794,,,,,
2149537313,-26.23531593,-132.3423927,-852.3423927,,,,,
2164457711,-25.41818577,-152.7440377,-872.7440377,,,,,
2179378109,-25.27456704,-164.5080866,-884.5080866,,,,,
2194298507,-23.06828263,-166.2778858,-886.2778858,,,,,
2209218905,-21.58389928,-174.5153141,-894.5153141,,,,,
2224139303,-23.18594364,-170.1329773,-890.1329773,,,,,
2239059701,-20.60998329,-162.4430499,-882.4430499,,,,,
2253980099,-22.89081145,178.2655321,-901.7344679,,,,,
2268900497,-22.41705641,-164.6775744,-884.6775744,,,,,
2283820895,-24.39266938,172.6136298,-907.3863702,,,,,
2298741293,-24.6521962,176.5367904,-903.4632096,,,,,
2313661691,-24.68309209,155.3534256,-924.6465744,,,,,
2328582089,-25.01178133,139.0452088,-940.9547912,,,,,
2343502487,-22.62035666,147.234592,-932.765408,,,,,
2358422885,-21.464125,139.9157168,-940.0842832,,,,,
2373343283,-22.39839217,157.778402,-922.221598,,,,,
2388263681,-22.14234664,134.1684596,-945.8315404,,,,,
2403184079,-23.98612095,150.3343982,-929.6656018,,,,,
2418104477,-23.6839734,131.7625894,-948.2374106,,,,,
2433024875,-25.70606362,116.1977871,-963.8022129,,,,,
2447945273,-25.59194105,126.1339215,-953.8660785,,,,,
2462865671,-22.8661401,105.9222879,-974.0777121,,,,,
2477786069,-24.05785021,103.2881188,-976.7118812,,,,,
2492706467,-19.9259175,93.78472127,-986.2152787,,,,,
2507626865,-21.45473882,94.32107413,-985.6789259,,,,,
2522547263,-19.66106477,109.7803002,-970.2196998,,,,,
2537467661,-19.49751923,94.15008412,-985.8499159,,,,,
2552388059,-19.59584625,85.96644737,-994.0335526,,,,,
2567308457,-20.68582571,92.89831314,-987.1016869,,,,,
2582228855,-19.35482622,85.96311484,-994.0368852,,,,,
2597149253,-19.44319297,83.69038856,-996.3096114,,,,,
2612069651,-21.16363394,91.97503913,-988.0249609,,,,,
2626990049,-20.9619161,65.36780572,-1014.632194,,,,,
2641910447,-17.95714624,72.55836643,-1007.441634,,,,,
2656830845,-15.1275243,57.72721056,-1022.272789,,,,,
2671751243,-17.43735852,39.88671954,-1040.11328,,,,,
2686671641,-9.995529672,91.30723243,-988.6927676,,,,,
2701592039,-29.39358921,-104.2306275,-824.2306275,,,,,
2716512437,-15.22704455,-37.67144148,-757.6714415,,,,,
2731432835,-19.82500556,84.6371024,-635.3628976,,,,,
2746353233,-20.43658062,51.69414008,-668.3058599,,,,,
2761273631,-22.25390419,86.73572425,-633.2642757,,,,,
2776194029,-12.18454859,66.97319874,-653.0268013,,,,,
2791114427,-16.33888249,28.78362374,-691.2163763,,,,,
2806034825,-13.00346855,64.76041355,-655.2395864,,,,,
2820955223,-21.96584319,29.46672846,-690.5332715,,,,,
2835875621,-14.50980869,6.268254685,-713.7317453,,,,,
2850796019,-14.28991088,-12.94906652,-732.9490665,,,,,
2865716417,-12.79274588,16.67785844,-703.3221416,,,,,
2880636815,-12.78007901,9.912801911,-710.0871981,,,,,
2895557213,-13.77624446,27.91754232,-692.0824577,,,,,
2910477611,-12.15075643,13.79410199,-706.205898,,,,,
2925398009,-9.337885891,16.37601215,-703.6239879,,,,,
2940318407,-8.185929941,-0.833825342,-720.8338253,,,,,
2955238805,-12.09771285,24.68941128,-695.3105887,,,,,
2970159203,-10.53347303,13.66057057,-706.3394294,,,,,
2985079601,-11.55605823,-51.24441167,-771.2444117,,,,,
3000000000,-8.601325991,-12.69999209,-732.6999921,,,,,